* c:\users\pranav\desktop\esim\esim_mixed_signal_ajay_pranav\esim_mixed_signal_ajay_pranav.cir
Transient Analysis  Sat Oct 08 23:04:51  2022
--------------------------------------------------------------------------------
Index   time            v1#branch       v2#branch       v3#branch       
--------------------------------------------------------------------------------
0	0.000000e+00	0.000000e+00	0.000000e+00	-9.31198e-12	
1	1.000000e-04	-1.02254e-15	-1.02271e-15	-9.31207e-12	
2	2.000000e-04	-9.78868e-16	-9.78753e-16	-9.31236e-12	
3	4.000000e-04	-9.10740e-16	-9.10881e-16	-9.31297e-12	
4	8.000000e-04	-8.51870e-16	-8.51842e-16	-9.31435e-12	
5	1.600000e-03	-8.38076e-16	-8.37991e-16	-9.31962e-12	
6	3.200000e-03	-8.64864e-16	-8.65033e-16	-9.34185e-12	
7	6.400000e-03	-9.23203e-16	-9.23088e-16	-9.43913e-12	
8	1.280000e-02	-1.03981e-15	-1.03992e-15	-9.85855e-12	
9	2.280000e-02	-1.19884e-15	-1.19877e-15	-1.12151e-11	
10	3.280000e-02	-1.33308e-15	-1.33308e-15	-1.38621e-11	
11	4.280000e-02	-1.44336e-15	-1.44340e-15	-1.87294e-11	
12	5.280000e-02	-1.53276e-15	-1.53271e-15	-2.76783e-11	
13	6.280000e-02	-1.60195e-15	-1.60202e-15	-4.45019e-11	
14	7.280000e-02	-1.65294e-15	-1.65288e-15	-7.69227e-11	
15	8.280000e-02	-1.68594e-15	-1.68597e-15	-1.40735e-10	
16	9.280000e-02	-1.70210e-15	-1.70211e-15	-2.68117e-10	
17	1.028000e-01	-1.70178e-15	-1.70178e-15	-5.23671e-10	
18	1.128000e-01	-1.68577e-15	-1.68580e-15	-1.03347e-09	
19	1.228000e-01	-1.65490e-15	-1.65490e-15	-2.03305e-09	
20	1.328000e-01	-1.61035e-15	-1.61044e-15	-3.93678e-09	
21	1.428000e-01	-1.55360e-15	-1.55370e-15	-7.41941e-09	
22	1.528000e-01	-1.48630e-15	-1.48650e-15	-1.34825e-08	
23	1.628000e-01	-1.41033e-15	-1.41063e-15	-2.34655e-08	
24	1.728000e-01	-1.32763e-15	-1.32803e-15	-3.89722e-08	
25	1.828000e-01	-1.23979e-15	-1.24056e-15	-6.17238e-08	
26	1.928000e-01	-1.14850e-15	-1.14942e-15	-9.33802e-08	
27	2.028000e-01	-1.05491e-15	-1.05626e-15	-1.35375e-07	
28	2.128000e-01	-9.59722e-16	-9.61462e-16	-1.88778e-07	
29	2.228000e-01	-8.63765e-16	-8.65965e-16	-2.54158e-07	
30	2.328000e-01	-7.66805e-16	-7.69618e-16	-3.31449e-07	
31	2.428000e-01	-6.69418e-16	-6.72764e-16	-4.19791e-07	
32	2.528000e-01	-5.70898e-16	-5.74931e-16	-5.17383e-07	
33	2.628000e-01	-4.71603e-16	-4.76256e-16	-6.21376e-07	
34	2.728000e-01	-3.70701e-16	-3.75982e-16	-7.27848e-07	
35	2.828000e-01	-2.68539e-16	-2.74402e-16	-8.31909e-07	
36	2.928000e-01	-1.64388e-16	-1.70701e-16	-9.27962e-07	
37	3.028000e-01	-5.86707e-17	-6.51802e-17	-1.01011e-06	
38	3.128000e-01	4.931535e-17	4.255680e-17	-1.07268e-06	
39	3.228000e-01	1.588467e-16	1.524587e-16	-1.11086e-06	
40	3.328000e-01	2.708474e-16	2.647789e-16	-1.12119e-06	
41	3.428000e-01	3.846849e-16	3.793397e-16	-1.10208e-06	
42	3.528000e-01	5.016129e-16	4.971610e-16	-1.05406e-06	
43	3.628000e-01	6.211327e-16	6.178529e-16	-9.79812e-07	
44	3.728000e-01	7.451819e-16	7.430070e-16	-8.83934e-07	
45	3.828000e-01	8.732446e-16	8.724806e-16	-7.72532e-07	
46	3.928000e-01	1.007599e-15	1.007865e-15	-6.52588e-07	
47	4.028000e-01	1.147495e-15	1.149125e-15	-5.31262e-07	
48	4.128000e-01	1.294714e-15	1.297255e-15	-4.15202e-07	
49	4.228000e-01	1.447996e-15	1.451485e-15	-3.09960e-07	
50	4.328000e-01	1.607414e-15	1.611516e-15	-2.19576e-07	
51	4.428000e-01	1.770156e-15	1.774872e-15	-1.46372e-07	
52	4.528000e-01	1.934008e-15	1.939087e-15	-9.10045e-08	
53	4.628000e-01	2.091914e-15	2.097221e-15	-5.21007e-08	
54	4.728000e-01	2.238852e-15	2.244362e-15	-2.72712e-08	

Index   time            v1#branch       v2#branch       v3#branch       
--------------------------------------------------------------------------------
55	4.828000e-01	2.366926e-15	2.372282e-15	-1.30212e-08	
56	4.928000e-01	2.470238e-15	2.475599e-15	-5.70553e-09	
57	5.028000e-01	2.544546e-15	2.549573e-15	-2.33738e-09	
58	5.128000e-01	2.588500e-15	2.593303e-15	-9.14625e-10	
59	5.228000e-01	2.603136e-15	2.607317e-15	-3.50706e-10	
60	5.328000e-01	2.591805e-15	2.595814e-15	-1.35427e-10	
61	5.428000e-01	2.558125e-15	2.561283e-15	-5.43997e-11	
62	5.528000e-01	2.506343e-15	2.509318e-15	-2.37631e-11	
63	5.628000e-01	2.439279e-15	2.441594e-15	-1.19627e-11	
64	5.728000e-01	2.360447e-15	2.362655e-15	-7.28637e-12	
65	5.828000e-01	2.271786e-15	2.273287e-15	-5.36697e-12	
66	5.928000e-01	2.175220e-15	2.176824e-15	-4.54730e-12	
67	6.028000e-01	2.072025e-15	2.073064e-15	-4.18220e-12	
68	6.128000e-01	1.963928e-15	1.965077e-15	-4.01215e-12	
69	6.228000e-01	1.851193e-15	1.851773e-15	-3.92930e-12	
70	6.328000e-01	1.735172e-15	1.736127e-15	-3.88702e-12	
71	6.428000e-01	1.616219e-15	1.616541e-15	-3.86436e-12	
72	6.528000e-01	1.495190e-15	1.495887e-15	-3.85161e-12	
73	6.628000e-01	1.372434e-15	1.372579e-15	-3.84409e-12	
74	6.728000e-01	1.248275e-15	1.248848e-15	-3.83943e-12	
75	6.828000e-01	1.123583e-15	1.123584e-15	-3.83633e-12	
76	6.928000e-01	9.981779e-16	9.986736e-16	-3.83427e-12	
77	7.028000e-01	8.728686e-16	8.728458e-16	-3.83277e-12	
78	7.128000e-01	7.477047e-16	7.480386e-16	-3.83161e-12	
79	7.228000e-01	6.230117e-16	6.229589e-16	-3.83070e-12	
80	7.328000e-01	4.994245e-16	4.996400e-16	-3.83001e-12	
81	7.428000e-01	3.765721e-16	3.766608e-16	-3.82943e-12	
82	7.528000e-01	2.556780e-16	2.557393e-16	-3.82895e-12	
83	7.628000e-01	1.359760e-16	1.361062e-16	-3.82857e-12	
84	7.728000e-01	1.883258e-17	1.881873e-17	-3.82819e-12	
85	7.828000e-01	-9.65496e-17	-9.64685e-17	-3.82801e-12	
86	7.928000e-01	-2.09146e-16	-2.09111e-16	-3.82776e-12	
87	8.028000e-01	-3.19283e-16	-3.19249e-16	-3.82763e-12	
88	8.128000e-01	-4.26319e-16	-4.26270e-16	-3.82749e-12	
89	8.228000e-01	-5.30736e-16	-5.30782e-16	-3.82740e-12	
90	8.328000e-01	-6.31752e-16	-6.31606e-16	-3.82745e-12	
91	8.428000e-01	-7.30015e-16	-7.30148e-16	-3.82748e-12	
92	8.528000e-01	-8.24962e-16	-8.24850e-16	-3.82756e-12	
93	8.628000e-01	-9.16999e-16	-9.17068e-16	-3.82769e-12	
94	8.728000e-01	-1.00583e-15	-1.00576e-15	-3.82792e-12	
95	8.828000e-01	-1.09176e-15	-1.09180e-15	-3.82817e-12	
96	8.928000e-01	-1.17469e-15	-1.17463e-15	-3.82856e-12	
97	9.028000e-01	-1.25470e-15	-1.25470e-15	-3.82901e-12	
98	9.128000e-01	-1.33175e-15	-1.33174e-15	-3.82961e-12	
99	9.228000e-01	-1.40594e-15	-1.40595e-15	-3.83049e-12	
100	9.328000e-01	-1.47724e-15	-1.47725e-15	-3.83169e-12	
101	9.428000e-01	-1.54553e-15	-1.54552e-15	-3.83336e-12	
102	9.528000e-01	-1.61067e-15	-1.61072e-15	-3.83590e-12	
103	9.628000e-01	-1.67290e-15	-1.67285e-15	-3.83991e-12	
104	9.728000e-01	-1.73132e-15	-1.73134e-15	-3.84654e-12	
105	9.828000e-01	-1.78655e-15	-1.78649e-15	-3.85792e-12	
106	9.928000e-01	-1.83715e-15	-1.83725e-15	-3.87860e-12	
107	1.002800e+00	-1.88413e-15	-1.88401e-15	-3.91756e-12	
108	1.012800e+00	-1.92529e-15	-1.92541e-15	-3.99373e-12	
109	1.022800e+00	-1.96180e-15	-1.96166e-15	-4.14818e-12	
110	1.032800e+00	-1.99133e-15	-1.99145e-15	-4.47189e-12	
111	1.042800e+00	-2.01471e-15	-2.01459e-15	-5.17097e-12	
112	1.052800e+00	-2.02965e-15	-2.02973e-15	-6.72014e-12	

Index   time            v1#branch       v2#branch       v3#branch       
--------------------------------------------------------------------------------
113	1.062800e+00	-2.03672e-15	-2.03668e-15	-1.02279e-11	
114	1.072800e+00	-2.03387e-15	-2.03388e-15	-1.82989e-11	
115	1.082800e+00	-2.02129e-15	-2.02127e-15	-3.70485e-11	
116	1.092800e+00	-1.99749e-15	-1.99753e-15	-8.06957e-11	
117	1.102800e+00	-1.96262e-15	-1.96260e-15	-1.81624e-10	
118	1.112800e+00	-1.91581e-15	-1.91580e-15	-4.11156e-10	
119	1.122800e+00	-1.85788e-15	-1.85796e-15	-9.18920e-10	
120	1.132800e+00	-1.78879e-15	-1.78874e-15	-1.99893e-09	
121	1.142800e+00	-1.71008e-15	-1.71022e-15	-4.18250e-09	
122	1.152800e+00	-1.62283e-15	-1.62286e-15	-8.33723e-09	
123	1.162800e+00	-1.52904e-15	-1.52933e-15	-1.57241e-08	
124	1.172800e+00	-1.43017e-15	-1.43049e-15	-2.79590e-08	
125	1.182800e+00	-1.32832e-15	-1.32890e-15	-4.68644e-08	
126	1.192800e+00	-1.22450e-15	-1.22526e-15	-7.42555e-08	
127	1.202800e+00	-1.12019e-15	-1.12141e-15	-1.11734e-07	
128	1.212800e+00	-1.01574e-15	-1.01717e-15	-1.60525e-07	
129	1.222800e+00	-9.11921e-16	-9.14036e-16	-2.21341e-07	
130	1.232800e+00	-8.08336e-16	-8.10796e-16	-2.94258e-07	
131	1.242800e+00	-7.05353e-16	-7.08609e-16	-3.78564e-07	
132	1.252800e+00	-6.02224e-16	-6.05838e-16	-4.72624e-07	
133	1.262800e+00	-4.98913e-16	-5.03426e-16	-5.73755e-07	
134	1.272800e+00	-3.94758e-16	-3.99711e-16	-6.78201e-07	
135	1.282800e+00	-2.89745e-16	-2.95418e-16	-7.81210e-07	
136	1.292800e+00	-1.83209e-16	-1.89217e-16	-8.77274e-07	
137	1.302800e+00	-7.53269e-17	-8.17942e-17	-9.60525e-07	
138	1.312800e+00	3.436539e-17	2.793638e-17	-1.02526e-06	
139	1.322800e+00	1.456921e-16	1.392223e-16	-1.06652e-06	
140	1.332800e+00	2.590641e-16	2.531938e-16	-1.08070e-06	
141	1.342800e+00	3.743644e-16	3.689848e-16	-1.06599e-06	
142	1.352800e+00	4.924200e-16	4.879932e-16	-1.02266e-06	
143	1.362800e+00	6.132356e-16	6.098186e-16	-9.53174e-07	
144	1.372800e+00	7.380844e-16	7.358592e-16	-8.61918e-07	
145	1.382800e+00	8.672457e-16	8.663238e-16	-7.54824e-07	
146	1.392800e+00	1.002196e-15	1.002309e-15	-6.38747e-07	
147	1.402800e+00	1.142808e-15	1.144334e-15	-5.20770e-07	
148	1.412800e+00	1.290541e-15	1.292860e-15	-4.07510e-07	
149	1.422800e+00	1.444208e-15	1.447571e-15	-3.04526e-07	
150	1.432800e+00	1.603935e-15	1.607875e-15	-2.15899e-07	
151	1.442800e+00	1.766829e-15	1.771454e-15	-1.44009e-07	
152	1.452800e+00	1.930921e-15	1.935716e-15	-8.95789e-08	
153	1.462800e+00	2.088693e-15	2.093990e-15	-5.13064e-08	
154	1.472800e+00	2.235905e-15	2.240950e-15	-2.68688e-08	
155	1.482800e+00	2.363605e-15	2.369164e-15	-1.28379e-08	
156	1.492800e+00	2.467331e-15	2.472146e-15	-5.63058e-09	
157	1.502800e+00	2.541441e-15	2.546663e-15	-2.30946e-09	
158	1.512800e+00	2.585876e-15	2.590103e-15	-9.04935e-10	
159	1.522800e+00	2.600496e-15	2.604931e-15	-3.47492e-10	
160	1.532800e+00	2.589669e-15	2.593085e-15	-1.34381e-10	
161	1.542800e+00	2.556008e-15	2.559526e-15	-5.40591e-11	
162	1.552800e+00	2.504810e-15	2.507200e-15	-2.36502e-11	
163	1.562800e+00	2.437682e-15	2.440379e-15	-1.19242e-11	
164	1.572800e+00	2.359405e-15	2.361071e-15	-7.27276e-12	
165	1.582800e+00	2.270613e-15	2.272526e-15	-5.36195e-12	
166	1.592800e+00	2.174550e-15	2.175616e-15	-4.54540e-12	
167	1.602800e+00	2.071115e-15	2.072647e-15	-4.18143e-12	
168	1.612800e+00	1.963591e-15	1.964191e-15	-4.01183e-12	
169	1.622800e+00	1.850454e-15	1.851487e-15	-3.92920e-12	
170	1.632800e+00	1.735038e-15	1.735476e-15	-3.88692e-12	

Index   time            v1#branch       v2#branch       v3#branch       
--------------------------------------------------------------------------------
171	1.642800e+00	1.615660e-15	1.616379e-15	-3.86433e-12	
172	1.652800e+00	1.495115e-15	1.495394e-15	-3.85158e-12	
173	1.662800e+00	1.372039e-15	1.372570e-15	-3.84409e-12	
174	1.672800e+00	1.248231e-15	1.248430e-15	-3.83944e-12	
175	1.682800e+00	1.123272e-15	1.123596e-15	-3.83636e-12	
176	1.692800e+00	9.981788e-16	9.984098e-16	-3.83425e-12	
177	1.702800e+00	8.726782e-16	8.728139e-16	-3.83276e-12	
178	1.712800e+00	7.476288e-16	7.478284e-16	-3.83155e-12	
179	1.722800e+00	6.229637e-16	6.230336e-16	-3.83073e-12	
180	1.732800e+00	4.992635e-16	4.994125e-16	-3.82999e-12	
181	1.742800e+00	3.766286e-16	3.767055e-16	-3.82945e-12	
182	1.752800e+00	2.555502e-16	2.556046e-16	-3.82900e-12	
183	1.762800e+00	1.360343e-16	1.361430e-16	-3.82860e-12	
184	1.772800e+00	1.869308e-17	1.873275e-17	-3.82823e-12	
185	1.782800e+00	-9.65191e-17	-9.64877e-17	-3.82798e-12	
186	1.792800e+00	-2.09220e-16	-2.09117e-16	-3.82777e-12	
187	1.802800e+00	-3.19232e-16	-3.19303e-16	-3.82761e-12	
188	1.812800e+00	-4.26415e-16	-4.26268e-16	-3.82749e-12	
189	1.822800e+00	-5.30646e-16	-5.30800e-16	-3.82744e-12	
190	1.832800e+00	-6.31837e-16	-6.31609e-16	-3.82744e-12	
191	1.842800e+00	-7.29991e-16	-7.30148e-16	-3.82750e-12	
192	1.852800e+00	-8.25049e-16	-8.24871e-16	-3.82754e-12	
193	1.862800e+00	-9.16921e-16	-9.17093e-16	-3.82771e-12	
194	1.872800e+00	-1.00589e-15	-1.00571e-15	-3.82793e-12	
195	1.882800e+00	-1.09177e-15	-1.09192e-15	-3.82818e-12	
196	1.892800e+00	-1.17466e-15	-1.17455e-15	-3.82856e-12	
197	1.902800e+00	-1.25471e-15	-1.25474e-15	-3.82903e-12	
198	1.912800e+00	-1.33175e-15	-1.33172e-15	-3.82963e-12	
199	1.922800e+00	-1.40596e-15	-1.40600e-15	-3.83050e-12	
200	1.932800e+00	-1.47723e-15	-1.47715e-15	-3.83168e-12	
201	1.942800e+00	-1.54554e-15	-1.54561e-15	-3.83336e-12	
202	1.952800e+00	-1.61071e-15	-1.61068e-15	-3.83592e-12	
203	1.962800e+00	-1.67285e-15	-1.67285e-15	-3.83988e-12	
204	1.972800e+00	-1.73139e-15	-1.73135e-15	-3.84651e-12	
205	1.982800e+00	-1.78644e-15	-1.78647e-15	-3.85798e-12	
206	1.992800e+00	-1.83732e-15	-1.83728e-15	-3.87863e-12	
207	2.002800e+00	-1.88395e-15	-1.88402e-15	-3.91755e-12	
208	2.012800e+00	-1.92545e-15	-1.92540e-15	-3.99373e-12	
209	2.022800e+00	-1.96171e-15	-1.96168e-15	-4.14820e-12	
210	2.032800e+00	-1.99136e-15	-1.99146e-15	-4.47187e-12	
211	2.042800e+00	-2.01471e-15	-2.01459e-15	-5.17096e-12	
212	2.052800e+00	-2.02963e-15	-2.02973e-15	-6.72011e-12	
213	2.062800e+00	-2.03677e-15	-2.03667e-15	-1.02279e-11	
214	2.072800e+00	-2.03381e-15	-2.03390e-15	-1.82988e-11	
215	2.082800e+00	-2.02132e-15	-2.02126e-15	-3.70484e-11	
216	2.092800e+00	-1.99747e-15	-1.99752e-15	-8.06956e-11	
217	2.102800e+00	-1.96264e-15	-1.96259e-15	-1.81624e-10	
218	2.112800e+00	-1.91577e-15	-1.91586e-15	-4.11155e-10	
219	2.122800e+00	-1.85793e-15	-1.85789e-15	-9.18919e-10	
220	2.132800e+00	-1.78873e-15	-1.78882e-15	-1.99893e-09	
221	2.142800e+00	-1.71019e-15	-1.71017e-15	-4.18251e-09	
222	2.152800e+00	-1.62269e-15	-1.62289e-15	-8.33725e-09	
223	2.162800e+00	-1.52917e-15	-1.52928e-15	-1.57241e-08	
224	2.172800e+00	-1.43007e-15	-1.43054e-15	-2.79591e-08	
225	2.182800e+00	-1.32842e-15	-1.32886e-15	-4.68644e-08	
226	2.192800e+00	-1.22437e-15	-1.22530e-15	-7.42556e-08	
227	2.202800e+00	-1.12031e-15	-1.12136e-15	-1.11735e-07	
228	2.212800e+00	-1.01564e-15	-1.01724e-15	-1.60525e-07	

Index   time            v1#branch       v2#branch       v3#branch       
--------------------------------------------------------------------------------
229	2.222800e+00	-9.11992e-16	-9.13959e-16	-2.21342e-07	
230	2.232800e+00	-8.08280e-16	-8.10876e-16	-2.94258e-07	
231	2.242800e+00	-7.05420e-16	-7.08543e-16	-3.78565e-07	
232	2.252800e+00	-6.02132e-16	-6.05885e-16	-4.72624e-07	
233	2.262800e+00	-4.99008e-16	-5.03371e-16	-5.73756e-07	
234	2.272800e+00	-3.94690e-16	-3.99748e-16	-6.78201e-07	
235	2.282800e+00	-2.89781e-16	-2.95396e-16	-7.81210e-07	
236	2.292800e+00	-1.83171e-16	-1.89259e-16	-8.77274e-07	
237	2.302800e+00	-7.53842e-17	-8.17613e-17	-9.60525e-07	
238	2.312800e+00	3.441650e-17	2.791437e-17	-1.02526e-06	
239	2.322800e+00	1.456559e-16	1.392354e-16	-1.06652e-06	
240	2.332800e+00	2.590742e-16	2.532003e-16	-1.08070e-06	
241	2.342800e+00	3.743721e-16	3.689568e-16	-1.06599e-06	
242	2.352800e+00	4.924164e-16	4.880314e-16	-1.02266e-06	
243	2.362800e+00	6.132408e-16	6.097733e-16	-9.53175e-07	
244	2.372800e+00	7.380726e-16	7.359270e-16	-8.61919e-07	
245	2.382800e+00	8.672742e-16	8.662175e-16	-7.54825e-07	
246	2.392800e+00	1.002167e-15	1.002433e-15	-6.38748e-07	
247	2.402800e+00	1.142792e-15	1.144219e-15	-5.20770e-07	
248	2.412800e+00	1.290561e-15	1.292964e-15	-4.07510e-07	
249	2.422800e+00	1.444216e-15	1.447491e-15	-3.04526e-07	
250	2.432800e+00	1.603928e-15	1.607956e-15	-2.15900e-07	
251	2.442800e+00	1.766847e-15	1.771357e-15	-1.44009e-07	
252	2.452800e+00	1.930888e-15	1.935841e-15	-8.95789e-08	
253	2.462800e+00	2.088726e-15	2.093863e-15	-5.13064e-08	
254	2.472800e+00	2.235861e-15	2.241046e-15	-2.68688e-08	
255	2.482800e+00	2.363682e-15	2.369052e-15	-1.28379e-08	
256	2.492800e+00	2.467242e-15	2.472256e-15	-5.63059e-09	
257	2.502800e+00	2.541525e-15	2.546581e-15	-2.30946e-09	
258	2.512800e+00	2.585823e-15	2.590182e-15	-9.04935e-10	
259	2.522800e+00	2.600479e-15	2.604823e-15	-3.47492e-10	
260	2.532800e+00	2.589736e-15	2.593235e-15	-1.34381e-10	
261	2.542800e+00	2.555936e-15	2.559392e-15	-5.40591e-11	
262	2.552800e+00	2.504831e-15	2.507335e-15	-2.36502e-11	
263	2.562800e+00	2.437709e-15	2.440253e-15	-1.19242e-11	
264	2.572800e+00	2.359367e-15	2.361187e-15	-7.27273e-12	
265	2.582800e+00	2.270633e-15	2.272395e-15	-5.36193e-12	
266	2.592800e+00	2.174504e-15	2.175765e-15	-4.54538e-12	
267	2.602800e+00	2.071216e-15	2.072452e-15	-4.18138e-12	
268	2.612800e+00	1.963499e-15	1.964368e-15	-4.01180e-12	
269	2.622800e+00	1.850521e-15	1.851372e-15	-3.92914e-12	
270	2.632800e+00	1.734953e-15	1.735593e-15	-3.88689e-12	
271	2.642800e+00	1.615758e-15	1.616226e-15	-3.86433e-12	
272	2.652800e+00	1.495011e-15	1.495579e-15	-3.85162e-12	
273	2.662800e+00	1.372113e-15	1.372374e-15	-3.84405e-12	
274	2.672800e+00	1.248193e-15	1.248608e-15	-3.83943e-12	
275	2.682800e+00	1.123330e-15	1.123425e-15	-3.83635e-12	
276	2.692800e+00	9.980977e-16	9.985940e-16	-3.83422e-12	
277	2.702800e+00	8.727550e-16	8.726038e-16	-3.83275e-12	
278	2.712800e+00	7.475800e-16	7.480296e-16	-3.83153e-12	
279	2.722800e+00	6.229958e-16	6.228372e-16	-3.83071e-12	
280	2.732800e+00	4.992365e-16	4.996149e-16	-3.83002e-12	
281	2.742800e+00	3.766678e-16	3.765098e-16	-3.82940e-12	
282	2.752800e+00	2.554874e-16	2.557875e-16	-3.82901e-12	
283	2.762800e+00	1.360750e-16	1.359803e-16	-3.82858e-12	
284	2.772800e+00	1.869870e-17	1.887042e-17	-3.82823e-12	
285	2.782800e+00	-9.65134e-17	-9.65796e-17	-3.82799e-12	
286	2.792800e+00	-2.09215e-16	-2.09068e-16	-3.82775e-12	

Index   time            v1#branch       v2#branch       v3#branch       
--------------------------------------------------------------------------------
287	2.802800e+00	-3.19283e-16	-3.19295e-16	-3.82763e-12	
288	2.812800e+00	-4.26311e-16	-4.26315e-16	-3.82751e-12	
289	2.822800e+00	-5.30795e-16	-5.30722e-16	-3.82743e-12	
290	2.832800e+00	-6.31753e-16	-6.31707e-16	-3.82747e-12	
291	2.842800e+00	-7.30000e-16	-7.30099e-16	-3.82747e-12	
292	2.852800e+00	-8.25045e-16	-8.24878e-16	-3.82754e-12	
293	2.862800e+00	-9.16927e-16	-9.17065e-16	-3.82769e-12	
294	2.872800e+00	-1.00593e-15	-1.00575e-15	-3.82793e-12	
295	2.882800e+00	-1.09170e-15	-1.09190e-15	-3.82818e-12	
296	2.892800e+00	-1.17471e-15	-1.17452e-15	-3.82857e-12	
297	2.902800e+00	-1.25469e-15	-1.25481e-15	-3.82901e-12	
298	2.912800e+00	-1.33172e-15	-1.33163e-15	-3.82963e-12	
299	2.922800e+00	-1.40603e-15	-1.40610e-15	-3.83048e-12	
300	2.932800e+00	-1.47716e-15	-1.47707e-15	-3.83168e-12	
301	2.942800e+00	-1.54563e-15	-1.54569e-15	-3.83334e-12	
302	2.952800e+00	-1.61059e-15	-1.61057e-15	-3.83591e-12	
303	2.962800e+00	-1.67301e-15	-1.67296e-15	-3.83991e-12	
304	2.972800e+00	-1.73122e-15	-1.73130e-15	-3.84646e-12	
305	2.982800e+00	-1.78660e-15	-1.78651e-15	-3.85795e-12	
306	2.992800e+00	-1.83714e-15	-1.83723e-15	-3.87865e-12	
307	3.002800e+00	-1.88413e-15	-1.88404e-15	-3.91755e-12	
308	3.012800e+00	-1.92529e-15	-1.92537e-15	-3.99373e-12	
309	3.022800e+00	-1.96185e-15	-1.96173e-15	-4.14816e-12	
310	3.032800e+00	-1.99124e-15	-1.99139e-15	-4.47189e-12	
311	3.042800e+00	-2.01481e-15	-2.01466e-15	-5.17095e-12	
312	3.052800e+00	-2.02954e-15	-2.02967e-15	-6.72010e-12	
313	3.062800e+00	-2.03685e-15	-2.03673e-15	-1.02278e-11	
314	3.072800e+00	-2.03372e-15	-2.03381e-15	-1.82989e-11	
315	3.082800e+00	-2.02143e-15	-2.02133e-15	-3.70485e-11	
316	3.092800e+00	-1.99736e-15	-1.99746e-15	-8.06958e-11	
317	3.102800e+00	-1.96274e-15	-1.96266e-15	-1.81624e-10	
318	3.112800e+00	-1.91569e-15	-1.91579e-15	-4.11155e-10	
319	3.122800e+00	-1.85802e-15	-1.85795e-15	-9.18920e-10	
320	3.132800e+00	-1.78865e-15	-1.78875e-15	-1.99893e-09	
321	3.142800e+00	-1.71023e-15	-1.71023e-15	-4.18251e-09	
322	3.152800e+00	-1.62267e-15	-1.62284e-15	-8.33724e-09	
323	3.162800e+00	-1.52919e-15	-1.52935e-15	-1.57241e-08	
324	3.172800e+00	-1.43004e-15	-1.43044e-15	-2.79591e-08	
325	3.182800e+00	-1.32846e-15	-1.32896e-15	-4.68644e-08	
